# vsim -c top 
# Start time: 10:26:46 on Dec 06,2025
# ** Note: (vsim-3813) Design is being optimized due to module recompilation...
# //  Questa Sim
# //  Version 10.6c linux Jul 25 2017
# //
# //  Copyright 1991-2017 Mentor Graphics Corporation
# //  All Rights Reserved.
# //
# //  QuestaSim and its associated documentation contain trade
# //  secrets and commercial or financial information that are the property of
# //  Mentor Graphics Corporation and are privileged, confidential,
# //  and exempt from disclosure under the Freedom of Information Act,
# //  5 U.S.C. Section 552. Furthermore, this information
# //  is prohibited from disclosure under the Trade Secrets Act,
# //  18 U.S.C. Section 1905.
# //
# Loading sv_std.std
# Loading work.apb_inf(fast)
# Loading mtiUvm.uvm_pkg
# Loading work.apb_pkg(fast)
# Loading work.top(fast)
# Loading mtiUvm.questa_uvm_pkg(fast)
# Loading /tools/mentor/questasim_10.6c/questasim/uvm-1.1d/linux/uvm_dpi.so
# ----------------------------------------------------------------
# UVM-1.1d
# (C) 2007-2013 Mentor Graphics Corporation
# (C) 2007-2013 Cadence Design Systems, Inc.
# (C) 2006-2013 Synopsys, Inc.
# (C) 2011-2013 Cypress Semiconductor Corp.
# ----------------------------------------------------------------
# 
#   ***********       IMPORTANT RELEASE NOTES         ************
# 
#   You are using a version of the UVM library that has been compiled
#   with `UVM_NO_DEPRECATED undefined.
#   See http://www.eda.org/svdb/view.php?id=3313 for more details.
# 
#   You are using a version of the UVM library that has been compiled
#   with `UVM_OBJECT_MUST_HAVE_CONSTRUCTOR undefined.
#   See http://www.eda.org/svdb/view.php?id=3770 for more details.
# 
#       (Specify +UVM_NO_RELNOTES to turn off this notice)
# 
# UVM_INFO verilog_src/questa_uvm_pkg-1.2/src/questa_uvm_pkg.sv(215) @ 0: reporter [Questa UVM] QUESTA_UVM-1.2.3
# UVM_INFO verilog_src/questa_uvm_pkg-1.2/src/questa_uvm_pkg.sv(217) @ 0: reporter [Questa UVM]  questa_uvm::init(+struct)
# UVM_INFO @ 0: reporter [RNTST] Running test write_error_seq_test...
# seq 6
# UVM_INFO apb_monitor.sv(32) @ 15: uvm_test_top.env.agt_act.mon_act [MON_ACT] MONITOR ACTIVE: PWRITE=1 | ADDR=256 | WDATA=3025604738 | STRB=111
# UVM_INFO apb_scoreboard.sv(37) @ 15: uvm_test_top.env.scb [apb_scoreboard] received input packet
# UVM_INFO apb_driver.sv(41) @ 15: uvm_test_top.env.agt_act.drv [DRV] DRIVER WRITE OPERATION: PWRITE=1 | ADDR=256 | WDATA=3025604738 | PSTRB =  7
# UVM_INFO apb_monitor.sv(78) @ 25: uvm_test_top.env.agt_pass.mon_pass [MON_PASS] MONITOR PASSIVE: PREADY=1 | PSLVERR=1 | ADDR=256 | RDATA=0
# UVM_INFO apb_scoreboard.sv(43) @ 25: uvm_test_top.env.scb [apb_scoreboard] received output packet
# UVM_INFO apb_scoreboard.sv(140) @ 25: uvm_test_top.env.scb [SB] MATCH
# UVM_INFO apb_scoreboard.sv(141) @ 25: uvm_test_top.env.scb [SB] ACTUAL RDATA = 0 PSLVERR = 1
# UVM_INFO apb_scoreboard.sv(142) @ 25: uvm_test_top.env.scb [SB] EXPECTED RDATA = 0 PSLVERR = 1
# UVM_INFO apb_monitor.sv(32) @ 35: uvm_test_top.env.agt_act.mon_act [MON_ACT] MONITOR ACTIVE: PWRITE=0 | ADDR=256 | WDATA=1896915256 | STRB=1001
# UVM_INFO apb_scoreboard.sv(37) @ 35: uvm_test_top.env.scb [apb_scoreboard] received input packet
# UVM_INFO apb_driver.sv(41) @ 35: uvm_test_top.env.agt_act.drv [DRV] DRIVER WRITE OPERATION: PWRITE=0 | ADDR=256 | WDATA=1896915256 | PSTRB =  9
# seq 6
# UVM_INFO apb_monitor.sv(78) @ 45: uvm_test_top.env.agt_pass.mon_pass [MON_PASS] MONITOR PASSIVE: PREADY=1 | PSLVERR=1 | ADDR=256 | RDATA=0
# UVM_INFO apb_scoreboard.sv(43) @ 45: uvm_test_top.env.scb [apb_scoreboard] received output packet
# UVM_INFO apb_scoreboard.sv(140) @ 45: uvm_test_top.env.scb [SB] MATCH
# UVM_INFO apb_scoreboard.sv(141) @ 45: uvm_test_top.env.scb [SB] ACTUAL RDATA = 0 PSLVERR = 1
# UVM_INFO apb_scoreboard.sv(142) @ 45: uvm_test_top.env.scb [SB] EXPECTED RDATA = 0 PSLVERR = 1
# UVM_INFO apb_monitor.sv(32) @ 55: uvm_test_top.env.agt_act.mon_act [MON_ACT] MONITOR ACTIVE: PWRITE=1 | ADDR=256 | WDATA=1921389183 | STRB=1111
# UVM_INFO apb_scoreboard.sv(37) @ 55: uvm_test_top.env.scb [apb_scoreboard] received input packet
# UVM_INFO apb_driver.sv(41) @ 55: uvm_test_top.env.agt_act.drv [DRV] DRIVER WRITE OPERATION: PWRITE=1 | ADDR=256 | WDATA=1921389183 | PSTRB = 15
# UVM_INFO apb_monitor.sv(78) @ 65: uvm_test_top.env.agt_pass.mon_pass [MON_PASS] MONITOR PASSIVE: PREADY=1 | PSLVERR=1 | ADDR=256 | RDATA=0
# UVM_INFO apb_scoreboard.sv(43) @ 65: uvm_test_top.env.scb [apb_scoreboard] received output packet
# UVM_INFO apb_scoreboard.sv(140) @ 65: uvm_test_top.env.scb [SB] MATCH
# UVM_INFO apb_scoreboard.sv(141) @ 65: uvm_test_top.env.scb [SB] ACTUAL RDATA = 0 PSLVERR = 1
# UVM_INFO apb_scoreboard.sv(142) @ 65: uvm_test_top.env.scb [SB] EXPECTED RDATA = 0 PSLVERR = 1
# UVM_INFO apb_monitor.sv(32) @ 75: uvm_test_top.env.agt_act.mon_act [MON_ACT] MONITOR ACTIVE: PWRITE=0 | ADDR=256 | WDATA=4125032545 | STRB=100
# UVM_INFO apb_scoreboard.sv(37) @ 75: uvm_test_top.env.scb [apb_scoreboard] received input packet
# UVM_INFO apb_driver.sv(41) @ 75: uvm_test_top.env.agt_act.drv [DRV] DRIVER WRITE OPERATION: PWRITE=0 | ADDR=256 | WDATA=4125032545 | PSTRB =  4
# UVM_INFO verilog_src/uvm-1.1d/src/base/uvm_objection.svh(1268) @ 75: reporter [TEST_DONE] 'run' phase is ready to proceed to the 'extract' phase
# UVM_INFO apb_subscriber.sv(84) @ 75: uvm_test_top.env.cov [apb_subscriber] [INPUT]  Coverage = 48.33%
# UVM_INFO apb_subscriber.sv(85) @ 75: uvm_test_top.env.cov [apb_subscriber] [OUTPUT] Coverage = 44.44%
# UVM_INFO apb_scoreboard.sv(238) @ 75: uvm_test_top.env.scb [apb_scoreboard] MATCH = 3, MISMATCH=0
# 
# --- UVM Report Summary ---
# 
# ** Report counts by severity
# UVM_INFO :   34
# UVM_WARNING :    0
# UVM_ERROR :    0
# UVM_FATAL :    0
# ** Report counts by id
# [DRV]     4
# [MON_ACT]     4
# [MON_PASS]     3
# [Questa UVM]     2
# [RNTST]     1
# [SB]     9
# [TEST_DONE]     1
# [apb_scoreboard]     8
# [apb_subscriber]     2
# ** Note: $finish    : /tools/mentor/questasim_10.6c/questasim/linux/../verilog_src/uvm-1.1d/src/base/uvm_root.svh(430)
#    Time: 75 ns  Iteration: 61  Instance: /top
# End time: 10:26:53 on Dec 06,2025, Elapsed time: 0:00:07
# Errors: 0, Warnings: 0
